T5250 18890:382 SEGGER J-Link V6.46 Log File (0000ms, 103888ms total)
T5250 18890:382 DLL Compiled: May 23 2019 17:49:56 (0000ms, 103888ms total)
T5250 18890:382 Logging started @ 2020-09-01 14:14 (0000ms, 103888ms total)
T5250 18890:382 JLINK_SetWarnOutHandler(...) (0000ms, 103888ms total)
T5250 18890:382 JLINK_OpenEx(...)
Firmware: J-Link V9 compiled Jun  2 2222 22:22:22
Hardware: V9.40
S/N: 59401308
Feature(s): GDB, RDI, FlashBP, FlashDL, JFlash, RDDI
TELNET listener socket opened on port 19021Device "STM32F030RC" selected.WEBSRV 
Starting webserver (0071ms, 103959ms total)
T5250 18890:382 WEBSRV Webserver running on local port 19080 (0071ms, 103959ms total)
T5250 18890:382   returns O.K. (0071ms, 103959ms total)
T5250 18890:453 JLINK_GetEmuCaps()  returns 0xB9FF7BBF (0000ms, 103959ms total)
T5250 18890:454 JLINK_TIF_GetAvailable(...) (0000ms, 103959ms total)
T5250 18890:454 JLINK_SetErrorOutHandler(...) (0000ms, 103959ms total)
T5250 18890:454 JLINK_ExecCommand("ProjectFile = "D:\meter https\last\Firmware_P4.5_20190305\GasMeter4\MDK-ARM\JLinkSettings.ini"", ...). Device "STM32F030RC" selected.  returns 0x00 (0006ms, 103965ms total)
T5250 18890:462 JLINK_ExecCommand("Device = STM32F030RCTx", ...). Device "STM32F030RC" selected.  returns 0x00 (0005ms, 103970ms total)
T5250 18890:467 JLINK_ExecCommand("DisableConnectionTimeout", ...).   returns 0x01 (0000ms, 103970ms total)
T5250 18890:467 JLINK_GetHardwareVersion()  returns 0x16F30 (0000ms, 103970ms total)
T5250 18890:467 JLINK_GetDLLVersion()  returns 64600 (0000ms, 103970ms total)
T5250 18890:467 JLINK_GetFirmwareString(...) (0000ms, 103970ms total)
T5250 18890:477 JLINK_GetDLLVersion()  returns 64600 (0000ms, 103970ms total)
T5250 18890:477 JLINK_GetCompileDateTime() (0000ms, 103970ms total)
T5250 18890:482 JLINK_GetFirmwareString(...) (0000ms, 103970ms total)
T5250 18890:486 JLINK_GetHardwareVersion()  returns 0x16F30 (0000ms, 103970ms total)
T5250 18890:501 JLINK_TIF_Select(JLINKARM_TIF_SWD)  returns 0x00 (0002ms, 103972ms total)
T5250 18890:503 JLINK_SetSpeed(50000) (0001ms, 103973ms total)
T5250 18890:504 JLINK_GetId() >0x10B TIF>Found SW-DP with ID 0x0BB11477 >0x0D TIF> >0x28 TIF> >0x0D TIF> >0x28 TIF> >0x0D TIF> >0x28 TIF> >0x0D TIF> >0x28 TIF> >0x0D TIF> >0x21 TIF> >0x0D TIF> >0x28 TIF> >0x0D TIF> >0x28 TIF> >0x0D TIF> >0x28 TIF> >0x0D TIF> >0x21 TIF> >0x0D TIF> >0x21 TIF> >0x0D TIF> >0x28 TIF> >0x0D TIF> >0x21 TIF> >0x0D TIF> >0x21 TIF> >0x0D TIF> >0x28 TIF> >0x0D TIF> >0x21 TIF> >0x0D TIF> >0x21 TIF> >0x0D TIF> >0x28 TIF> >0x0D TIF> >0x28 TIF> >0x0D TIF> >0x28 TIF> >0x0D TIF>
 >0x21 TIF> >0x0D TIF> >0x21 TIF> >0x0D TIF> >0x28 TIF> >0x0D TIF> >0x28 TIF> >0x0D TIF> >0x28 TIF> >0x0D TIF> >0x21 TIF> >0x0D TIF> >0x21 TIF> >0x0D TIF> >0x28 TIF> >0x0D TIF> >0x21 TIF> >0x0D TIF> >0x21 TIF> >0x0D TIF> >0x28 TIF> >0x0D TIF> >0x21 TIF> >0x0D TIF> >0x21 TIF> >0x0D TIF> >0x28 TIF> >0x0D TIF> >0x21 TIF> >0x0D TIF> >0x21 TIF> >0x0D TIF> >0x28 TIF> >0x0D TIF> >0x21 TIF> >0x0D TIF> >0x21 TIF> >0x0D TIF> >0x28 TIF> >0x0D TIF> >0x21 TIF> >0x0D TIF> >0x21 TIF> >0x10B TIF>
Found SW-DP with ID 0x0BB11477 >0x0D TIF> >0x28 TIF> >0x0D TIF> >0x28 TIF> >0x0D TIF> >0x28 TIF> >0x0D TIF> >0x28 TIF> >0x0D TIF> >0x21 TIF> >0x0D TIF> >0x28 TIF>Scanning AP map to find all available APs >0x0D TIF> >0x28 TIF> >0x0D TIF> >0x21 TIF> >0x0D TIF> >0x21 TIF> >0x0D TIF> >0x28 TIF> >0x0D TIF> >0x21 TIF> >0x0D TIF> >0x21 TIF>AP[1]: Stopped AP scan as end of AP map has been reachedAP[0]: AHB-AP (IDR: 0x04770021)Iterating through AP map to find AHB-AP to use >0x42 TIF> >0x28 TIF> >0x0D TIF>
 >0x28 TIF> >0x0D TIF> >0x21 TIF> >0x0D TIF> >0x21 TIF> >0x42 TIF> >0x28 TIF> >0x0D TIF> >0x28 TIF> >0x0D TIF> >0x28 TIF> >0x0D TIF> >0x21 TIF> >0x0D TIF> >0x21 TIF>AP[0]: Core foundAP[0]: AHB-AP ROM base: 0xE00FF000 >0x0D TIF> >0x28 TIF> >0x0D TIF> >0x28 TIF> >0x0D TIF> >0x28 TIF> >0x0D TIF> >0x21 TIF> >0x0D TIF> >0x21 TIF>CPUID register: 0x410CC200. Implementer code: 0x41 (ARM)Found Cortex-M0 r0p0, Little endian. -- Max. mem block: 0x00010FB0 -- CPU_ReadMem(4 bytes @ 0xE000EDF0)
 -- CPU_WriteMem(4 bytes @ 0xE000EDF0) -- CPU_ReadMem(4 bytes @ 0xE0002000)FPUnit: 4 code (BP) slots and 0 literal slots -- CPU_ReadMem(4 bytes @ 0xE000EDFC) -- CPU_WriteMem(4 bytes @ 0xE000EDFC) -- CPU_ReadMem(4 bytes @ 0xE0001000) -- CPU_WriteMem(4 bytes @ 0xE0001000)CoreSight components:ROMTbl[0] @ E00FF000 -- CPU_ReadMem(16 bytes @ 0xE00FF000) -- CPU_ReadMem(16 bytes @ 0xE000EFF0) -- CPU_ReadMem(16 bytes @ 0xE000EFE0)ROMTbl[0][0]: E000E000, CID: B105E00D, PID: 000BB008 SCS
 -- CPU_ReadMem(16 bytes @ 0xE0001FF0) -- CPU_ReadMem(16 bytes @ 0xE0001FE0)ROMTbl[0][1]: E0001000, CID: B105E00D, PID: 000BB00A DWT -- CPU_ReadMem(16 bytes @ 0xE0002FF0) -- CPU_ReadMem(16 bytes @ 0xE0002FE0)ROMTbl[0][2]: E0002000, CID: B105E00D, PID: 000BB00B FPB >0x0D TIF> >0x21 TIF>  returns 0x0BB11477 (0271ms, 104244ms total)
T5250 18890:775 JLINK_GetDLLVersion()  returns 64600 (0000ms, 104244ms total)
T5250 18890:775 JLINK_CORE_GetFound()  returns 0x60000FF (0000ms, 104244ms total)
T5250 18890:775 JLINK_GetDebugInfo(0x100 = JLINKARM_ROM_TABLE_ADDR_INDEX) -- Value=0xE00FF000  returns 0x00 (0000ms, 104244ms total)
T5250 18890:778 JLINK_GetDebugInfo(0x100 = JLINKARM_ROM_TABLE_ADDR_INDEX) -- Value=0xE00FF000  returns 0x00 (0000ms, 104244ms total)
T5250 18890:778 JLINK_GetDebugInfo(0x101 = JLINKARM_DEBUG_INFO_ETM_ADDR_INDEX) -- Value=0x00000000  returns 0x00 (0000ms, 104244ms total)
T5250 18890:778 JLINK_ReadMemEx(0xE0041FF0, 0x0010 Bytes, ..., Flags = 0x02000004) -- CPU_ReadMem(16 bytes @ 0xE0041FF0) - Data: 00 00 00 00 00 00 00 00 00 00 00 00 00 00 00 00  returns 0x10 (0001ms, 104245ms total)
T5250 18890:779 JLINK_GetDebugInfo(0x102 = JLINKARM_DEBUG_INFO_MTB_ADDR_INDEX) -- Value=0x00000000  returns 0x00 (0000ms, 104245ms total)
T5250 18890:779 JLINK_GetDebugInfo(0x103 = JLINKARM_DEBUG_INFO_TPIU_ADDR_INDEX) -- Value=0x00000000  returns 0x00 (0000ms, 104245ms total)
T5250 18890:779 JLINK_ReadMemEx(0xE0040FF0, 0x0010 Bytes, ..., Flags = 0x02000004) -- CPU_ReadMem(16 bytes @ 0xE0040FF0) - Data: 00 00 00 00 00 00 00 00 00 00 00 00 00 00 00 00  returns 0x10 (0001ms, 104246ms total)
T5250 18890:780 JLINK_GetDebugInfo(0x104 = JLINKARM_DEBUG_INFO_ITM_ADDR_INDEX) -- Value=0xE0000000  returns 0x00 (0000ms, 104246ms total)
T5250 18890:780 JLINK_GetDebugInfo(0x105 = JLINKARM_DEBUG_INFO_DWT_ADDR_INDEX) -- Value=0xE0001000  returns 0x00 (0000ms, 104246ms total)
T5250 18890:780 JLINK_GetDebugInfo(0x106 = JLINKARM_DEBUG_INFO_FPB_ADDR_INDEX) -- Value=0xE0002000  returns 0x00 (0000ms, 104246ms total)
T5250 18890:780 JLINK_GetDebugInfo(0x107 = JLINKARM_DEBUG_INFO_NVIC_ADDR_INDEX) -- Value=0xE000E000  returns 0x00 (0000ms, 104246ms total)
T5250 18890:780 JLINK_GetDebugInfo(0x10C = JLINKARM_DEBUG_INFO_DBG_ADDR_INDEX) -- Value=0xE000EDF0  returns 0x00 (0000ms, 104246ms total)
T5250 18890:780 JLINK_GetDebugInfo(0x01 = Unknown) -- Value=0x00000000  returns 0x00 (0000ms, 104246ms total)
T5250 18890:780 JLINK_ReadMemU32(0xE000ED00, 0x0001 Items, ...) -- CPU_ReadMem(4 bytes @ 0xE000ED00) - Data: 00 C2 0C 41  returns 1 (0001ms, 104247ms total)
T5250 18890:781 JLINK_GetDebugInfo(0x10F = JLINKARM_DEBUG_INFO_HAS_CORTEX_M_SECURITY_EXT_INDEX) -- Value=0x00000000  returns 0x00 (0000ms, 104247ms total)
T5250 18890:781 JLINK_SetResetType(JLINKARM_CM3_RESET_TYPE_NORMAL)  returns JLINKARM_CM3_RESET_TYPE_NORMAL (0000ms, 104247ms total)
T5250 18890:781 JLINK_Reset() -- CPU is running -- CPU_WriteMem(4 bytes @ 0xE000EDF0) -- CPU is running -- CPU_WriteMem(4 bytes @ 0xE000EDFC)Reset: Halt core after reset via DEMCR.VC_CORERESET. >0x35 TIF>Reset: Reset device via AIRCR.SYSRESETREQ. -- CPU is running -- CPU_WriteMem(4 bytes @ 0xE000ED0C) >0x0D TIF> >0x28 TIF> -- CPU_ReadMem(4 bytes @ 0xE000EDF0) -- CPU_ReadMem(4 bytes @ 0xE000EDF0) -- CPU is running -- CPU_WriteMem(4 bytes @ 0xE000EDF0) -- CPU is running
 -- CPU_WriteMem(4 bytes @ 0xE000EDFC) -- CPU_ReadMem(4 bytes @ 0xE000EDF0) -- CPU_WriteMem(4 bytes @ 0xE0002000) -- CPU_ReadMem(4 bytes @ 0xE000EDFC) -- CPU_ReadMem(4 bytes @ 0xE0001000) -- CPU_WriteMem(4 bytes @ 0xE0001000) (0078ms, 104325ms total)
T5250 18890:859 JLINK_Halt()  returns 0x00 (0000ms, 104325ms total)
T5250 18890:859 JLINK_ReadMemU32(0xE000EDF0, 0x0001 Items, ...) -- CPU_ReadMem(4 bytes @ 0xE000EDF0) - Data: 03 00 03 00  returns 1 (0001ms, 104326ms total)
T5250 18890:860 JLINK_WriteU32(0xE000EDF0, 0xA05F0003) -- CPU_WriteMem(4 bytes @ 0xE000EDF0)  returns 0 (0001ms, 104327ms total)
T5250 18890:861 JLINK_WriteU32(0xE000EDFC, 0x01000000) -- CPU_WriteMem(4 bytes @ 0xE000EDFC)  returns 0 (0000ms, 104327ms total)
T5250 18890:875 JLINK_GetHWStatus(...)  returns 0x00 (0001ms, 104328ms total)
T5250 18890:885 JLINK_GetNumBPUnits(Type = 0xFFFFFF00)  returns 0x04 (0000ms, 104328ms total)
T5250 18890:885 JLINK_GetNumBPUnits(Type = 0xF0)  returns 0x2000 (0000ms, 104328ms total)
T5250 18890:885 JLINK_GetNumWPUnits()  returns 0x02 (0000ms, 104328ms total)
T5250 18890:894 JLINK_GetSpeed()  returns 0x2EE0 (0000ms, 104328ms total)
T5250 18890:902 JLINK_ReadMemU32(0xE000E004, 0x0001 Items, ...) -- CPU_ReadMem(4 bytes @ 0xE000E004) - Data: 00 00 00 00  returns 1 (0000ms, 104328ms total)
T5250 18890:902 JLINK_Halt()  returns 0x00 (0000ms, 104328ms total)
T5250 18890:902 JLINK_IsHalted()  returns TRUE (0000ms, 104328ms total)
T5250 18890:905 JLINK_WriteMem(0x20000000, 0x0170 Bytes, ...) - Data: 00 BE 0A E0 0D 78 2D 06 68 40 08 24 40 00 00 D3 ... -- CPU_WriteMem(368 bytes @ 0x20000000)  returns 0x170 (0002ms, 104330ms total)
T5250 18890:907 JLINK_WriteReg(R0, 0x08000000)  returns 0x00 (0000ms, 104330ms total)
T5250 18890:907 JLINK_WriteReg(R1, 0x02DC6C00)  returns 0x00 (0000ms, 104330ms total)
T5250 18890:907 JLINK_WriteReg(R2, 0x00000001)  returns 0x00 (0001ms, 104331ms total)
T5250 18890:908 JLINK_WriteReg(R3, 0x00000000)  returns 0x00 (0000ms, 104331ms total)
T5250 18890:908 JLINK_WriteReg(R4, 0x00000000)  returns 0x00 (0000ms, 104331ms total)
T5250 18890:908 JLINK_WriteReg(R5, 0x00000000)  returns 0x00 (0000ms, 104331ms total)
T5250 18890:908 JLINK_WriteReg(R6, 0x00000000)  returns 0x00 (0000ms, 104331ms total)
T5250 18890:908 JLINK_WriteReg(R7, 0x00000000)  returns 0x00 (0000ms, 104331ms total)
T5250 18890:908 JLINK_WriteReg(R8, 0x00000000)  returns 0x00 (0000ms, 104331ms total)
T5250 18890:908 JLINK_WriteReg(R9, 0x2000016C)  returns 0x00 (0000ms, 104331ms total)
T5250 18890:908 JLINK_WriteReg(R10, 0x00000000)  returns 0x00 (0000ms, 104331ms total)
T5250 18890:908 JLINK_WriteReg(R11, 0x00000000)  returns 0x00 (0000ms, 104331ms total)
T5250 18890:908 JLINK_WriteReg(R12, 0x00000000)  returns 0x00 (0000ms, 104331ms total)
T5250 18890:908 JLINK_WriteReg(R13 (SP), 0x20001000)  returns 0x00 (0000ms, 104331ms total)
T5250 18890:908 JLINK_WriteReg(R14, 0x20000001)  returns 0x00 (0000ms, 104331ms total)
T5250 18890:908 JLINK_WriteReg(R15 (PC), 0x20000038)  returns 0x00 (0000ms, 104331ms total)
T5250 18890:908 JLINK_WriteReg(XPSR, 0x01000000)  returns 0x00 (0000ms, 104331ms total)
T5250 18890:908 JLINK_WriteReg(MSP, 0x20001000)  returns 0x00 (0000ms, 104331ms total)
T5250 18890:908 JLINK_WriteReg(PSP, 0x20001000)  returns 0x00 (0000ms, 104331ms total)
T5250 18890:908 JLINK_WriteReg(CFBP, 0x00000000)  returns 0x00 (0000ms, 104331ms total)
T5250 18890:908 JLINK_SetBPEx(Addr = 0x20000000, Type = 0xFFFFFFF2) -- CPU_ReadMem(2 bytes @ 0x20000000)  returns 0x00000001 (0001ms, 104332ms total)
T5250 18890:909 JLINK_Go() -- CPU_WriteMem(2 bytes @ 0x20000000) -- CPU_ReadMem(4 bytes @ 0xE0001000) -- CPU_WriteMem(4 bytes @ 0xE0001000) -- CPU_WriteMem(4 bytes @ 0xE0002008) -- CPU_WriteMem(4 bytes @ 0xE000200C) -- CPU_WriteMem(4 bytes @ 0xE0002010) -- CPU_WriteMem(4 bytes @ 0xE0002014) -- CPU_WriteMem(4 bytes @ 0xE0001004) (0005ms, 104337ms total)
T5250 18890:915 JLINK_IsHalted() -- CPU_ReadMem(2 bytes @ 0x20000000)  returns TRUE (0002ms, 104339ms total)
T5250 18890:917 JLINK_ReadReg(R15 (PC))  returns 0x20000000 (0000ms, 104337ms total)
T5250 18890:917 JLINK_ClrBPEx(BPHandle = 0x00000001)  returns 0x00 (0000ms, 104337ms total)
T5250 18890:917 JLINK_ReadReg(R0)  returns 0x00000000 (0000ms, 104337ms total)
T5250 18890:918 JLINK_WriteReg(R0, 0x08000000)  returns 0x00 (0000ms, 104337ms total)
T5250 18890:918 JLINK_WriteReg(R1, 0x02DC6C00)  returns 0x00 (0000ms, 104337ms total)
T5250 18890:918 JLINK_WriteReg(R2, 0x00000001)  returns 0x00 (0000ms, 104337ms total)
T5250 18890:918 JLINK_WriteReg(R3, 0x00000000)  returns 0x00 (0000ms, 104337ms total)
T5250 18890:918 JLINK_WriteReg(R4, 0x00000000)  returns 0x00 (0000ms, 104337ms total)
T5250 18890:918 JLINK_WriteReg(R5, 0x00000000)  returns 0x00 (0000ms, 104337ms total)
T5250 18890:918 JLINK_WriteReg(R6, 0x00000000)  returns 0x00 (0000ms, 104337ms total)
T5250 18890:918 JLINK_WriteReg(R7, 0x00000000)  returns 0x00 (0000ms, 104337ms total)
T5250 18890:918 JLINK_WriteReg(R8, 0x00000000)  returns 0x00 (0000ms, 104337ms total)
T5250 18890:918 JLINK_WriteReg(R9, 0x2000016C)  returns 0x00 (0000ms, 104337ms total)
T5250 18890:918 JLINK_WriteReg(R10, 0x00000000)  returns 0x00 (0000ms, 104337ms total)
T5250 18890:918 JLINK_WriteReg(R11, 0x00000000)  returns 0x00 (0000ms, 104337ms total)
T5250 18890:918 JLINK_WriteReg(R12, 0x00000000)  returns 0x00 (0000ms, 104337ms total)
T5250 18890:918 JLINK_WriteReg(R13 (SP), 0x20001000)  returns 0x00 (0000ms, 104337ms total)
T5250 18890:918 JLINK_WriteReg(R14, 0x20000001)  returns 0x00 (0000ms, 104337ms total)
T5250 18890:918 JLINK_WriteReg(R15 (PC), 0x20000074)  returns 0x00 (0000ms, 104337ms total)
T5250 18890:918 JLINK_WriteReg(XPSR, 0x01000000)  returns 0x00 (0000ms, 104337ms total)
T5250 18890:918 JLINK_WriteReg(MSP, 0x20001000)  returns 0x00 (0000ms, 104337ms total)
T5250 18890:918 JLINK_WriteReg(PSP, 0x20001000)  returns 0x00 (0000ms, 104337ms total)
T5250 18890:918 JLINK_WriteReg(CFBP, 0x00000000)  returns 0x00 (0000ms, 104337ms total)
T5250 18890:918 JLINK_SetBPEx(Addr = 0x20000000, Type = 0xFFFFFFF2)  returns 0x00000002 (0000ms, 104337ms total)
T5250 18890:918 JLINK_Go() -- CPU_ReadMem(4 bytes @ 0xE0001000) -- CPU_WriteMem(4 bytes @ 0xE0001000) (0004ms, 104341ms total)
T5250 18890:922 JLINK_IsHalted()  returns FALSE (0000ms, 104341ms total)
T5250 18890:985 JLINK_IsHalted() -- CPU_ReadMem(2 bytes @ 0x20000000)  returns TRUE (0004ms, 104345ms total)
T5250 18890:989 JLINK_ReadReg(R15 (PC))  returns 0x20000000 (0000ms, 104341ms total)
T5250 18890:989 JLINK_ClrBPEx(BPHandle = 0x00000002)  returns 0x00 (0000ms, 104341ms total)
T5250 18890:989 JLINK_ReadReg(R0)  returns 0x00000000 (0000ms, 104341ms total)
T5250 18891:040 JLINK_WriteReg(R0, 0x00000001)  returns 0x00 (0000ms, 104341ms total)
T5250 18891:040 JLINK_WriteReg(R1, 0x02DC6C00)  returns 0x00 (0000ms, 104341ms total)
T5250 18891:040 JLINK_WriteReg(R2, 0x00000001)  returns 0x00 (0000ms, 104341ms total)
T5250 18891:040 JLINK_WriteReg(R3, 0x00000000)  returns 0x00 (0000ms, 104341ms total)
T5250 18891:040 JLINK_WriteReg(R4, 0x00000000)  returns 0x00 (0000ms, 104341ms total)
T5250 18891:040 JLINK_WriteReg(R5, 0x00000000)  returns 0x00 (0000ms, 104341ms total)
T5250 18891:040 JLINK_WriteReg(R6, 0x00000000)  returns 0x00 (0000ms, 104341ms total)
T5250 18891:040 JLINK_WriteReg(R7, 0x00000000)  returns 0x00 (0000ms, 104341ms total)
T5250 18891:040 JLINK_WriteReg(R8, 0x00000000)  returns 0x00 (0000ms, 104341ms total)
T5250 18891:040 JLINK_WriteReg(R9, 0x2000016C)  returns 0x00 (0000ms, 104341ms total)
T5250 18891:040 JLINK_WriteReg(R10, 0x00000000)  returns 0x00 (0000ms, 104341ms total)
T5250 18891:040 JLINK_WriteReg(R11, 0x00000000)  returns 0x00 (0000ms, 104341ms total)
T5250 18891:040 JLINK_WriteReg(R12, 0x00000000)  returns 0x00 (0000ms, 104341ms total)
T5250 18891:040 JLINK_WriteReg(R13 (SP), 0x20001000)  returns 0x00 (0000ms, 104341ms total)
T5250 18891:040 JLINK_WriteReg(R14, 0x20000001)  returns 0x00 (0000ms, 104341ms total)
T5250 18891:040 JLINK_WriteReg(R15 (PC), 0x20000066)  returns 0x00 (0000ms, 104341ms total)
T5250 18891:040 JLINK_WriteReg(XPSR, 0x01000000)  returns 0x00 (0000ms, 104341ms total)
T5250 18891:040 JLINK_WriteReg(MSP, 0x20001000)  returns 0x00 (0000ms, 104341ms total)
T5250 18891:040 JLINK_WriteReg(PSP, 0x20001000)  returns 0x00 (0000ms, 104341ms total)
T5250 18891:040 JLINK_WriteReg(CFBP, 0x00000000)  returns 0x00 (0000ms, 104341ms total)
T5250 18891:040 JLINK_SetBPEx(Addr = 0x20000000, Type = 0xFFFFFFF2)  returns 0x00000003 (0000ms, 104341ms total)
T5250 18891:040 JLINK_Go() -- CPU_ReadMem(4 bytes @ 0xE0001000) -- CPU_WriteMem(4 bytes @ 0xE0001000) (0006ms, 104347ms total)
T5250 18891:046 JLINK_IsHalted() -- CPU_ReadMem(2 bytes @ 0x20000000)  returns TRUE (0003ms, 104350ms total)
T5250 18891:049 JLINK_ReadReg(R15 (PC))  returns 0x20000000 (0000ms, 104347ms total)
T5250 18891:049 JLINK_ClrBPEx(BPHandle = 0x00000003)  returns 0x00 (0000ms, 104347ms total)
T5250 18891:049 JLINK_ReadReg(R0)  returns 0x00000000 (0000ms, 104347ms total)
T5250 18891:061 JLINK_WriteMem(0x20000000, 0x0170 Bytes, ...) - Data: 00 BE 0A E0 0D 78 2D 06 68 40 08 24 40 00 00 D3 ... -- CPU_WriteMem(368 bytes @ 0x20000000)  returns 0x170 (0001ms, 104348ms total)
T5250 18891:062 JLINK_WriteReg(R0, 0x08000000)  returns 0x00 (0000ms, 104348ms total)
T5250 18891:062 JLINK_WriteReg(R1, 0x02DC6C00)  returns 0x00 (0000ms, 104348ms total)
T5250 18891:062 JLINK_WriteReg(R2, 0x00000002)  returns 0x00 (0000ms, 104348ms total)
T5250 18891:062 JLINK_WriteReg(R3, 0x00000000)  returns 0x00 (0000ms, 104348ms total)
T5250 18891:062 JLINK_WriteReg(R4, 0x00000000)  returns 0x00 (0000ms, 104348ms total)
T5250 18891:062 JLINK_WriteReg(R5, 0x00000000)  returns 0x00 (0000ms, 104348ms total)
T5250 18891:062 JLINK_WriteReg(R6, 0x00000000)  returns 0x00 (0000ms, 104348ms total)
T5250 18891:062 JLINK_WriteReg(R7, 0x00000000)  returns 0x00 (0000ms, 104348ms total)
T5250 18891:062 JLINK_WriteReg(R8, 0x00000000)  returns 0x00 (0000ms, 104348ms total)
T5250 18891:062 JLINK_WriteReg(R9, 0x2000016C)  returns 0x00 (0000ms, 104348ms total)
T5250 18891:062 JLINK_WriteReg(R10, 0x00000000)  returns 0x00 (0000ms, 104348ms total)
T5250 18891:062 JLINK_WriteReg(R11, 0x00000000)  returns 0x00 (0000ms, 104348ms total)
T5250 18891:062 JLINK_WriteReg(R12, 0x00000000)  returns 0x00 (0000ms, 104348ms total)
T5250 18891:062 JLINK_WriteReg(R13 (SP), 0x20001000)  returns 0x00 (0000ms, 104348ms total)
T5250 18891:062 JLINK_WriteReg(R14, 0x20000001)  returns 0x00 (0000ms, 104348ms total)
T5250 18891:062 JLINK_WriteReg(R15 (PC), 0x20000038)  returns 0x00 (0000ms, 104348ms total)
T5250 18891:062 JLINK_WriteReg(XPSR, 0x01000000)  returns 0x00 (0000ms, 104348ms total)
T5250 18891:062 JLINK_WriteReg(MSP, 0x20001000)  returns 0x00 (0000ms, 104348ms total)
T5250 18891:062 JLINK_WriteReg(PSP, 0x20001000)  returns 0x00 (0000ms, 104348ms total)
T5250 18891:062 JLINK_WriteReg(CFBP, 0x00000000)  returns 0x00 (0000ms, 104348ms total)
T5250 18891:062 JLINK_SetBPEx(Addr = 0x20000000, Type = 0xFFFFFFF2) -- CPU_ReadMem(2 bytes @ 0x20000000)  returns 0x00000004 (0001ms, 104349ms total)
T5250 18891:063 JLINK_Go() -- CPU_WriteMem(2 bytes @ 0x20000000) -- CPU_ReadMem(4 bytes @ 0xE0001000) -- CPU_WriteMem(4 bytes @ 0xE0001000) (0003ms, 104352ms total)
T5250 18891:066 JLINK_IsHalted() -- CPU_ReadMem(2 bytes @ 0x20000000)  returns TRUE (0003ms, 104355ms total)
T5250 18891:069 JLINK_ReadReg(R15 (PC))  returns 0x20000000 (0000ms, 104352ms total)
T5250 18891:069 JLINK_ClrBPEx(BPHandle = 0x00000004)  returns 0x00 (0000ms, 104352ms total)
T5250 18891:069 JLINK_ReadReg(R0)  returns 0x00000000 (0000ms, 104352ms total)
T5250 18891:069 JLINK_WriteMem(0x20000170, 0x0290 Bytes, ...) - Data: D8 64 00 20 45 01 00 08 9B 7B 00 08 79 58 00 08 ... -- CPU_WriteMem(656 bytes @ 0x20000170)  returns 0x290 (0003ms, 104355ms total)
T5250 18891:072 JLINK_WriteMem(0x20000400, 0x0170 Bytes, ...) - Data: 20 46 10 BD 42 1C 01 78 40 1C 00 29 FB D1 80 1A ... -- CPU_WriteMem(368 bytes @ 0x20000400)  returns 0x170 (0002ms, 104357ms total)
T5250 18891:074 JLINK_WriteReg(R0, 0x08000000)  returns 0x00 (0000ms, 104357ms total)
T5250 18891:074 JLINK_WriteReg(R1, 0x00000400)  returns 0x00 (0000ms, 104357ms total)
T5250 18891:074 JLINK_WriteReg(R2, 0x20000170)  returns 0x00 (0000ms, 104357ms total)
T5250 18891:074 JLINK_WriteReg(R3, 0x00000000)  returns 0x00 (0000ms, 104357ms total)
T5250 18891:074 JLINK_WriteReg(R4, 0x00000000)  returns 0x00 (0000ms, 104357ms total)
T5250 18891:074 JLINK_WriteReg(R5, 0x00000000)  returns 0x00 (0000ms, 104357ms total)
T5250 18891:074 JLINK_WriteReg(R6, 0x00000000)  returns 0x00 (0000ms, 104357ms total)
T5250 18891:074 JLINK_WriteReg(R7, 0x00000000)  returns 0x00 (0000ms, 104357ms total)
T5250 18891:074 JLINK_WriteReg(R8, 0x00000000)  returns 0x00 (0000ms, 104357ms total)
T5250 18891:074 JLINK_WriteReg(R9, 0x2000016C)  returns 0x00 (0000ms, 104357ms total)
T5250 18891:074 JLINK_WriteReg(R10, 0x00000000)  returns 0x00 (0000ms, 104357ms total)
T5250 18891:074 JLINK_WriteReg(R11, 0x00000000)  returns 0x00 (0000ms, 104357ms total)
T5250 18891:074 JLINK_WriteReg(R12, 0x00000000)  returns 0x00 (0000ms, 104357ms total)
T5250 18891:074 JLINK_WriteReg(R13 (SP), 0x20001000)  returns 0x00 (0000ms, 104357ms total)
T5250 18891:074 JLINK_WriteReg(R14, 0x20000001)  returns 0x00 (0000ms, 104357ms total)
T5250 18891:074 JLINK_WriteReg(R15 (PC), 0x200000FA)  returns 0x00 (0000ms, 104357ms total)
T5250 18891:074 JLINK_WriteReg(XPSR, 0x01000000)  returns 0x00 (0000ms, 104357ms total)
T5250 18891:074 JLINK_WriteReg(MSP, 0x20001000)  returns 0x00 (0000ms, 104357ms total)
T5250 18891:074 JLINK_WriteReg(PSP, 0x20001000)  returns 0x00 (0000ms, 104357ms total)
T5250 18891:074 JLINK_WriteReg(CFBP, 0x00000000)  returns 0x00 (0000ms, 104357ms total)
T5250 18891:074 JLINK_SetBPEx(Addr = 0x20000000, Type = 0xFFFFFFF2)  returns 0x00000005 (0000ms, 104357ms total)
T5250 18891:074 JLINK_Go() -- CPU_ReadMem(4 bytes @ 0xE0001000) -- CPU_WriteMem(4 bytes @ 0xE0001000) (0004ms, 104361ms total)
T5250 18891:078 JLINK_IsHalted()  returns FALSE (0000ms, 104361ms total)
T5250 18891:085 JLINK_IsHalted()  returns FALSE (0000ms, 104361ms total)
T5250 18891:087 JLINK_IsHalted()  returns FALSE (0000ms, 104361ms total)
T5250 18891:089 JLINK_IsHalted()  returns FALSE (0000ms, 104361ms total)
T5250 18891:092 JLINK_IsHalted()  returns FALSE (0000ms, 104361ms total)
T5250 18891:094 JLINK_IsHalted()  returns FALSE (0000ms, 104361ms total)
T5250 18891:096 JLINK_IsHalted()  returns FALSE (0000ms, 104361ms total)
T5250 18891:098 JLINK_IsHalted()  returns FALSE (0000ms, 104361ms total)
T5250 18891:100 JLINK_IsHalted()  returns FALSE (0000ms, 104361ms total)
T5250 18891:102 JLINK_IsHalted()  returns FALSE (0000ms, 104361ms total)
T5250 18891:104 JLINK_IsHalted()  returns FALSE (0000ms, 104361ms total)
T5250 18891:106 JLINK_IsHalted()  returns FALSE (0000ms, 104361ms total)
T5250 18891:108 JLINK_IsHalted() -- CPU_ReadMem(2 bytes @ 0x20000000)  returns TRUE (0002ms, 104363ms total)
T5250 18891:110 JLINK_ReadReg(R15 (PC))  returns 0x20000000 (0000ms, 104361ms total)
T5250 18891:110 JLINK_ClrBPEx(BPHandle = 0x00000005)  returns 0x00 (0000ms, 104361ms total)
T5250 18891:110 JLINK_ReadReg(R0)  returns 0x00000000 (0000ms, 104361ms total)
T5250 18891:110 JLINK_WriteMem(0x20000170, 0x0290 Bytes, ...) - Data: 7F 1C 04 98 88 47 00 90 00 2E 05 DD 05 99 00 98 ... -- CPU_WriteMem(656 bytes @ 0x20000170)  returns 0x290 (0003ms, 104364ms total)
T5250 18891:113 JLINK_WriteMem(0x20000400, 0x0170 Bytes, ...) - Data: 0F 99 30 38 08 70 0F 98 40 1C 0F 90 20 06 07 D5 ... -- CPU_WriteMem(368 bytes @ 0x20000400)  returns 0x170 (0002ms, 104366ms total)
T5250 18891:115 JLINK_WriteReg(R0, 0x08000400)  returns 0x00 (0000ms, 104366ms total)
T5250 18891:115 JLINK_WriteReg(R1, 0x00000400)  returns 0x00 (0000ms, 104366ms total)
T5250 18891:115 JLINK_WriteReg(R2, 0x20000170)  returns 0x00 (0000ms, 104366ms total)
T5250 18891:115 JLINK_WriteReg(R3, 0x00000000)  returns 0x00 (0000ms, 104366ms total)
T5250 18891:115 JLINK_WriteReg(R4, 0x00000000)  returns 0x00 (0000ms, 104366ms total)
T5250 18891:115 JLINK_WriteReg(R5, 0x00000000)  returns 0x00 (0000ms, 104366ms total)
T5250 18891:115 JLINK_WriteReg(R6, 0x00000000)  returns 0x00 (0000ms, 104366ms total)
T5250 18891:115 JLINK_WriteReg(R7, 0x00000000)  returns 0x00 (0000ms, 104366ms total)
T5250 18891:115 JLINK_WriteReg(R8, 0x00000000)  returns 0x00 (0000ms, 104366ms total)
T5250 18891:115 JLINK_WriteReg(R9, 0x2000016C)  returns 0x00 (0000ms, 104366ms total)
T5250 18891:115 JLINK_WriteReg(R10, 0x00000000)  returns 0x00 (0000ms, 104366ms total)
T5250 18891:115 JLINK_WriteReg(R11, 0x00000000)  returns 0x00 (0000ms, 104366ms total)
T5250 18891:115 JLINK_WriteReg(R12, 0x00000000)  returns 0x00 (0000ms, 104366ms total)
T5250 18891:115 JLINK_WriteReg(R13 (SP), 0x20001000)  returns 0x00 (0000ms, 104366ms total)
T5250 18891:115 JLINK_WriteReg(R14, 0x20000001)  returns 0x00 (0001ms, 104367ms total)
T5250 18891:116 JLINK_WriteReg(R15 (PC), 0x200000FA)  returns 0x00 (0000ms, 104367ms total)
T5250 18891:116 JLINK_WriteReg(XPSR, 0x01000000)  returns 0x00 (0000ms, 104367ms total)
T5250 18891:116 JLINK_WriteReg(MSP, 0x20001000)  returns 0x00 (0000ms, 104367ms total)
T5250 18891:116 JLINK_WriteReg(PSP, 0x20001000)  returns 0x00 (0000ms, 104367ms total)
T5250 18891:116 JLINK_WriteReg(CFBP, 0x00000000)  returns 0x00 (0000ms, 104367ms total)
T5250 18891:116 JLINK_SetBPEx(Addr = 0x20000000, Type = 0xFFFFFFF2)  returns 0x00000006 (0000ms, 104367ms total)
T5250 18891:116 JLINK_Go() -- CPU_ReadMem(4 bytes @ 0xE0001000) -- CPU_WriteMem(4 bytes @ 0xE0001000) (0003ms, 104370ms total)
T5250 18891:119 JLINK_IsHalted()  returns FALSE (0001ms, 104371ms total)
T5250 18891:122 JLINK_IsHalted()  returns FALSE (0000ms, 104370ms total)
T5250 18891:124 JLINK_IsHalted()  returns FALSE (0000ms, 104370ms total)
T5250 18891:126 JLINK_IsHalted()  returns FALSE (0000ms, 104370ms total)
T5250 18891:128 JLINK_IsHalted()  returns FALSE (0000ms, 104370ms total)
T5250 18891:130 JLINK_IsHalted()  returns FALSE (0000ms, 104370ms total)
T5250 18891:132 JLINK_IsHalted()  returns FALSE (0000ms, 104370ms total)
T5250 18891:134 JLINK_IsHalted()  returns FALSE (0000ms, 104370ms total)
T5250 18891:137 JLINK_IsHalted()  returns FALSE (0000ms, 104370ms total)
T5250 18891:139 JLINK_IsHalted()  returns FALSE (0000ms, 104370ms total)
T5250 18891:140 JLINK_IsHalted()  returns FALSE (0000ms, 104370ms total)
T5250 18891:142 JLINK_IsHalted()  returns FALSE (0001ms, 104371ms total)
T5250 18891:145 JLINK_IsHalted()  returns FALSE (0000ms, 104370ms total)
T5250 18891:147 JLINK_IsHalted()  returns FALSE (0000ms, 104370ms total)
T5250 18891:149 JLINK_IsHalted()  returns FALSE (0000ms, 104370ms total)
T5250 18891:151 JLINK_IsHalted() -- CPU_ReadMem(2 bytes @ 0x20000000)  returns TRUE (0001ms, 104371ms total)
T5250 18891:152 JLINK_ReadReg(R15 (PC))  returns 0x20000000 (0000ms, 104370ms total)
T5250 18891:152 JLINK_ClrBPEx(BPHandle = 0x00000006)  returns 0x00 (0000ms, 104370ms total)
T5250 18891:152 JLINK_ReadReg(R0)  returns 0x00000000 (0001ms, 104371ms total)
T5250 18891:153 JLINK_WriteMem(0x20000170, 0x0290 Bytes, ...) - Data: E3 FB 2C 60 70 BD F8 B5 02 46 4A 40 D4 0F 42 00 ... -- CPU_WriteMem(656 bytes @ 0x20000170)  returns 0x290 (0004ms, 104375ms total)
T5250 18891:157 JLINK_WriteMem(0x20000400, 0x0170 Bytes, ...) - Data: 09 05 00 1C 4F 41 00 18 7F 41 11 46 18 18 79 41 ... -- CPU_WriteMem(368 bytes @ 0x20000400)  returns 0x170 (0002ms, 104377ms total)
T5250 18891:159 JLINK_WriteReg(R0, 0x08000800)  returns 0x00 (0000ms, 104377ms total)
T5250 18891:159 JLINK_WriteReg(R1, 0x00000400)  returns 0x00 (0000ms, 104377ms total)
T5250 18891:159 JLINK_WriteReg(R2, 0x20000170)  returns 0x00 (0000ms, 104377ms total)
T5250 18891:159 JLINK_WriteReg(R3, 0x00000000)  returns 0x00 (0000ms, 104377ms total)
T5250 18891:159 JLINK_WriteReg(R4, 0x00000000)  returns 0x00 (0000ms, 104377ms total)
T5250 18891:159 JLINK_WriteReg(R5, 0x00000000)  returns 0x00 (0000ms, 104377ms total)
T5250 18891:159 JLINK_WriteReg(R6, 0x00000000)  returns 0x00 (0000ms, 104377ms total)
T5250 18891:159 JLINK_WriteReg(R7, 0x00000000)  returns 0x00 (0000ms, 104377ms total)
T5250 18891:159 JLINK_WriteReg(R8, 0x00000000)  returns 0x00 (0001ms, 104378ms total)
T5250 18891:160 JLINK_WriteReg(R9, 0x2000016C)  returns 0x00 (0000ms, 104378ms total)
T5250 18891:160 JLINK_WriteReg(R10, 0x00000000)  returns 0x00 (0000ms, 104378ms total)
T5250 18891:160 JLINK_WriteReg(R11, 0x00000000)  returns 0x00 (0000ms, 104378ms total)
T5250 18891:160 JLINK_WriteReg(R12, 0x00000000)  returns 0x00 (0000ms, 104378ms total)
T5250 18891:160 JLINK_WriteReg(R13 (SP), 0x20001000)  returns 0x00 (0000ms, 104378ms total)
T5250 18891:160 JLINK_WriteReg(R14, 0x20000001)  returns 0x00 (0000ms, 104378ms total)
T5250 18891:160 JLINK_WriteReg(R15 (PC), 0x200000FA)  returns 0x00 (0000ms, 104378ms total)
T5250 18891:160 JLINK_WriteReg(XPSR, 0x01000000)  returns 0x00 (0000ms, 104378ms total)
T5250 18891:160 JLINK_WriteReg(MSP, 0x20001000)  returns 0x00 (0000ms, 104378ms total)
T5250 18891:160 JLINK_WriteReg(PSP, 0x20001000)  returns 0x00 (0000ms, 104378ms total)
T5250 18891:160 JLINK_WriteReg(CFBP, 0x00000000)  returns 0x00 (0000ms, 104378ms total)
T5250 18891:160 JLINK_SetBPEx(Addr = 0x20000000, Type = 0xFFFFFFF2)  returns 0x00000007 (0000ms, 104378ms total)
T5250 18891:160 JLINK_Go() -- CPU_ReadMem(4 bytes @ 0xE0001000) -- CPU_WriteMem(4 bytes @ 0xE0001000) (0003ms, 104381ms total)
T5250 18891:163 JLINK_IsHalted()  returns FALSE (0002ms, 104383ms total)
T5250 18891:177 JLINK_IsHalted()  returns FALSE (0000ms, 104381ms total)
T5250 18891:179 JLINK_IsHalted()  returns FALSE (0000ms, 104381ms total)
T5250 18891:182 JLINK_IsHalted()  returns FALSE (0000ms, 104381ms total)
T5250 18891:184 JLINK_IsHalted()  returns FALSE (0000ms, 104381ms total)
T5250 18891:186 JLINK_IsHalted()  returns FALSE (0000ms, 104381ms total)
T5250 18891:189 JLINK_IsHalted()  returns FALSE (0000ms, 104381ms total)
T5250 18891:191 JLINK_IsHalted()  returns FALSE (0000ms, 104381ms total)
T5250 18891:193 JLINK_IsHalted() -- CPU_ReadMem(2 bytes @ 0x20000000)  returns TRUE (0003ms, 104384ms total)
T5250 18891:196 JLINK_ReadReg(R15 (PC))  returns 0x20000000 (0000ms, 104381ms total)
T5250 18891:196 JLINK_ClrBPEx(BPHandle = 0x00000007)  returns 0x00 (0000ms, 104381ms total)
T5250 18891:196 JLINK_ReadReg(R0)  returns 0x00000000 (0000ms, 104381ms total)
T5250 18891:198 JLINK_WriteMem(0x20000170, 0x0290 Bytes, ...) - Data: 02 96 22 43 21 D0 62 46 0A 43 1E D0 62 00 57 0D ... -- CPU_WriteMem(656 bytes @ 0x20000170)  returns 0x290 (0003ms, 104384ms total)
T5250 18891:201 JLINK_WriteMem(0x20000400, 0x0170 Bytes, ...) - Data: 09 0C 02 04 00 14 11 43 07 90 00 27 08 9D 09 98 ... -- CPU_WriteMem(368 bytes @ 0x20000400)  returns 0x170 (0002ms, 104386ms total)
T5250 18891:203 JLINK_WriteReg(R0, 0x08000C00)  returns 0x00 (0000ms, 104386ms total)
T5250 18891:203 JLINK_WriteReg(R1, 0x00000400)  returns 0x00 (0000ms, 104386ms total)
T5250 18891:203 JLINK_WriteReg(R2, 0x20000170)  returns 0x00 (0000ms, 104386ms total)
T5250 18891:203 JLINK_WriteReg(R3, 0x00000000)  returns 0x00 (0000ms, 104386ms total)
T5250 18891:203 JLINK_WriteReg(R4, 0x00000000)  returns 0x00 (0000ms, 104386ms total)
T5250 18891:203 JLINK_WriteReg(R5, 0x00000000)  returns 0x00 (0000ms, 104386ms total)
T5250 18891:203 JLINK_WriteReg(R6, 0x00000000)  returns 0x00 (0000ms, 104386ms total)
T5250 18891:203 JLINK_WriteReg(R7, 0x00000000)  returns 0x00 (0001ms, 104387ms total)
T5250 18891:204 JLINK_WriteReg(R8, 0x00000000)  returns 0x00 (0000ms, 104387ms total)
T5250 18891:204 JLINK_WriteReg(R9, 0x2000016C)  returns 0x00 (0000ms, 104387ms total)
T5250 18891:204 JLINK_WriteReg(R10, 0x00000000)  returns 0x00 (0000ms, 104387ms total)
T5250 18891:204 JLINK_WriteReg(R11, 0x00000000)  returns 0x00 (0000ms, 104387ms total)
T5250 18891:204 JLINK_WriteReg(R12, 0x00000000)  returns 0x00 (0000ms, 104387ms total)
T5250 18891:204 JLINK_WriteReg(R13 (SP), 0x20001000)  returns 0x00 (0000ms, 104387ms total)
T5250 18891:204 JLINK_WriteReg(R14, 0x20000001)  returns 0x00 (0000ms, 104387ms total)
T5250 18891:204 JLINK_WriteReg(R15 (PC), 0x200000FA)  returns 0x00 (0000ms, 104387ms total)
T5250 18891:204 JLINK_WriteReg(XPSR, 0x01000000)  returns 0x00 (0000ms, 104387ms total)
T5250 18891:204 JLINK_WriteReg(MSP, 0x20001000)  returns 0x00 (0000ms, 104387ms total)
T5250 18891:204 JLINK_WriteReg(PSP, 0x20001000)  returns 0x00 (0000ms, 104387ms total)
T5250 18891:204 JLINK_WriteReg(CFBP, 0x00000000)  returns 0x00 (0000ms, 104387ms total)
T5250 18891:204 JLINK_SetBPEx(Addr = 0x20000000, Type = 0xFFFFFFF2)  returns 0x00000008 (0000ms, 104387ms total)
T5250 18891:204 JLINK_Go() -- CPU_ReadMem(4 bytes @ 0xE0001000) -- CPU_WriteMem(4 bytes @ 0xE0001000) (0005ms, 104392ms total)
T5250 18891:209 JLINK_IsHalted()  returns FALSE (0001ms, 104393ms total)
T5250 18891:212 JLINK_IsHalted()  returns FALSE (0000ms, 104392ms total)
T5250 18891:220 JLINK_IsHalted()  returns FALSE (0000ms, 104392ms total)
T5250 18891:223 JLINK_IsHalted()  returns FALSE (0000ms, 104392ms total)
T5250 18891:226 JLINK_IsHalted()  returns FALSE (0000ms, 104392ms total)
T5250 18891:228 JLINK_IsHalted()  returns FALSE (0001ms, 104393ms total)
T5250 18891:231 JLINK_IsHalted()  returns FALSE (0001ms, 104393ms total)
T5250 18891:234 JLINK_IsHalted()  returns FALSE (0000ms, 104392ms total)
T5250 18891:236 JLINK_IsHalted()  returns FALSE (0001ms, 104393ms total)
T5250 18891:239 JLINK_IsHalted() -- CPU_ReadMem(2 bytes @ 0x20000000)  returns TRUE (0004ms, 104396ms total)
T5250 18891:243 JLINK_ReadReg(R15 (PC))  returns 0x20000000 (0000ms, 104392ms total)
T5250 18891:243 JLINK_ClrBPEx(BPHandle = 0x00000008)  returns 0x00 (0000ms, 104392ms total)
T5250 18891:243 JLINK_ReadReg(R0)  returns 0x00000000 (0000ms, 104392ms total)
T5250 18891:244 JLINK_WriteMem(0x20000170, 0x0290 Bytes, ...) - Data: 01 D1 00 99 39 60 71 05 02 24 00 29 0B DA 40 42 ... -- CPU_WriteMem(656 bytes @ 0x20000170)  returns 0x290 (0004ms, 104396ms total)
T5250 18891:248 JLINK_WriteMem(0x20000400, 0x0170 Bytes, ...) - Data: 90 47 01 25 06 E0 0A 21 4F 43 3F 18 30 3F EB D4 ... -- CPU_WriteMem(368 bytes @ 0x20000400)  returns 0x170 (0002ms, 104398ms total)
T5250 18891:250 JLINK_WriteReg(R0, 0x08001000)  returns 0x00 (0000ms, 104398ms total)
T5250 18891:250 JLINK_WriteReg(R1, 0x00000400)  returns 0x00 (0000ms, 104398ms total)
T5250 18891:250 JLINK_WriteReg(R2, 0x20000170)  returns 0x00 (0000ms, 104398ms total)
T5250 18891:250 JLINK_WriteReg(R3, 0x00000000)  returns 0x00 (0000ms, 104398ms total)
T5250 18891:250 JLINK_WriteReg(R4, 0x00000000)  returns 0x00 (0000ms, 104398ms total)
T5250 18891:250 JLINK_WriteReg(R5, 0x00000000)  returns 0x00 (0000ms, 104398ms total)
T5250 18891:250 JLINK_WriteReg(R6, 0x00000000)  returns 0x00 (0000ms, 104398ms total)
T5250 18891:250 JLINK_WriteReg(R7, 0x00000000)  returns 0x00 (0000ms, 104398ms total)
T5250 18891:250 JLINK_WriteReg(R8, 0x00000000)  returns 0x00 (0000ms, 104398ms total)
T5250 18891:250 JLINK_WriteReg(R9, 0x2000016C)  returns 0x00 (0000ms, 104398ms total)
T5250 18891:250 JLINK_WriteReg(R10, 0x00000000)  returns 0x00 (0000ms, 104398ms total)
T5250 18891:251 JLINK_WriteReg(R11, 0x00000000)  returns 0x00 (0000ms, 104398ms total)
T5250 18891:251 JLINK_WriteReg(R12, 0x00000000)  returns 0x00 (0000ms, 104398ms total)
T5250 18891:251 JLINK_WriteReg(R13 (SP), 0x20001000)  returns 0x00 (0000ms, 104398ms total)
T5250 18891:251 JLINK_WriteReg(R14, 0x20000001)  returns 0x00 (0000ms, 104398ms total)
T5250 18891:251 JLINK_WriteReg(R15 (PC), 0x200000FA)  returns 0x00 (0000ms, 104398ms total)
T5250 18891:251 JLINK_WriteReg(XPSR, 0x01000000)  returns 0x00 (0000ms, 104398ms total)
T5250 18891:251 JLINK_WriteReg(MSP, 0x20001000)  returns 0x00 (0000ms, 104398ms total)
T5250 18891:251 JLINK_WriteReg(PSP, 0x20001000)  returns 0x00 (0000ms, 104398ms total)
T5250 18891:251 JLINK_WriteReg(CFBP, 0x00000000)  returns 0x00 (0000ms, 104398ms total)
T5250 18891:251 JLINK_SetBPEx(Addr = 0x20000000, Type = 0xFFFFFFF2)  returns 0x00000009 (0000ms, 104398ms total)
T5250 18891:251 JLINK_Go() -- CPU_ReadMem(4 bytes @ 0xE0001000) -- CPU_WriteMem(4 bytes @ 0xE0001000) (0005ms, 104403ms total)
T5250 18891:256 JLINK_IsHalted()  returns FALSE (0001ms, 104404ms total)
T5250 18891:259 JLINK_IsHalted()  returns FALSE (0000ms, 104403ms total)
T5250 18891:261 JLINK_IsHalted()  returns FALSE (0000ms, 104403ms total)
T5250 18891:263 JLINK_IsHalted()  returns FALSE (0000ms, 104403ms total)
T5250 18891:265 JLINK_IsHalted()  returns FALSE (0000ms, 104403ms total)
T5250 18891:271 JLINK_IsHalted()  returns FALSE (0001ms, 104404ms total)
T5250 18891:274 JLINK_IsHalted()  returns FALSE (0000ms, 104403ms total)
T5250 18891:280 JLINK_IsHalted()  returns FALSE (0000ms, 104403ms total)
T5250 18891:282 JLINK_IsHalted()  returns FALSE (0000ms, 104403ms total)
T5250 18891:284 JLINK_IsHalted()  returns FALSE (0000ms, 104403ms total)
T5250 18891:286 JLINK_IsHalted() -- CPU_ReadMem(2 bytes @ 0x20000000)  returns TRUE (0002ms, 104405ms total)
T5250 18891:288 JLINK_ReadReg(R15 (PC))  returns 0x20000000 (0000ms, 104403ms total)
T5250 18891:288 JLINK_ClrBPEx(BPHandle = 0x00000009)  returns 0x00 (0000ms, 104403ms total)
T5250 18891:288 JLINK_ReadReg(R0)  returns 0x00000000 (0000ms, 104403ms total)
T5250 18891:289 JLINK_WriteMem(0x20000170, 0x0290 Bytes, ...) - Data: 01 D5 08 22 17 E0 08 22 1D E0 48 49 28 46 08 40 ... -- CPU_WriteMem(656 bytes @ 0x20000170)  returns 0x290 (0003ms, 104406ms total)
T5250 18891:292 JLINK_WriteMem(0x20000400, 0x0170 Bytes, ...) - Data: 08 43 A0 64 01 20 70 BD 20 68 80 68 04 21 08 40 ... -- CPU_WriteMem(368 bytes @ 0x20000400)  returns 0x170 (0001ms, 104407ms total)
T5250 18891:293 JLINK_WriteReg(R0, 0x08001400)  returns 0x00 (0000ms, 104407ms total)
T5250 18891:293 JLINK_WriteReg(R1, 0x00000400)  returns 0x00 (0000ms, 104407ms total)
T5250 18891:293 JLINK_WriteReg(R2, 0x20000170)  returns 0x00 (0000ms, 104407ms total)
T5250 18891:293 JLINK_WriteReg(R3, 0x00000000)  returns 0x00 (0000ms, 104407ms total)
T5250 18891:293 JLINK_WriteReg(R4, 0x00000000)  returns 0x00 (0000ms, 104407ms total)
T5250 18891:293 JLINK_WriteReg(R5, 0x00000000)  returns 0x00 (0000ms, 104407ms total)
T5250 18891:293 JLINK_WriteReg(R6, 0x00000000)  returns 0x00 (0001ms, 104408ms total)
T5250 18891:294 JLINK_WriteReg(R7, 0x00000000)  returns 0x00 (0000ms, 104408ms total)
T5250 18891:294 JLINK_WriteReg(R8, 0x00000000)  returns 0x00 (0000ms, 104408ms total)
T5250 18891:294 JLINK_WriteReg(R9, 0x2000016C)  returns 0x00 (0000ms, 104408ms total)
T5250 18891:294 JLINK_WriteReg(R10, 0x00000000)  returns 0x00 (0000ms, 104408ms total)
T5250 18891:294 JLINK_WriteReg(R11, 0x00000000)  returns 0x00 (0000ms, 104408ms total)
T5250 18891:294 JLINK_WriteReg(R12, 0x00000000)  returns 0x00 (0000ms, 104408ms total)
T5250 18891:294 JLINK_WriteReg(R13 (SP), 0x20001000)  returns 0x00 (0000ms, 104408ms total)
T5250 18891:294 JLINK_WriteReg(R14, 0x20000001)  returns 0x00 (0000ms, 104408ms total)
T5250 18891:294 JLINK_WriteReg(R15 (PC), 0x200000FA)  returns 0x00 (0000ms, 104408ms total)
T5250 18891:294 JLINK_WriteReg(XPSR, 0x01000000)  returns 0x00 (0000ms, 104408ms total)
T5250 18891:294 JLINK_WriteReg(MSP, 0x20001000)  returns 0x00 (0000ms, 104408ms total)
T5250 18891:294 JLINK_WriteReg(PSP, 0x20001000)  returns 0x00 (0000ms, 104408ms total)
T5250 18891:294 JLINK_WriteReg(CFBP, 0x00000000)  returns 0x00 (0000ms, 104408ms total)
T5250 18891:294 JLINK_SetBPEx(Addr = 0x20000000, Type = 0xFFFFFFF2)  returns 0x0000000A (0000ms, 104408ms total)
T5250 18891:294 JLINK_Go() -- CPU_ReadMem(4 bytes @ 0xE0001000) -- CPU_WriteMem(4 bytes @ 0xE0001000) (0003ms, 104411ms total)
T5250 18891:297 JLINK_IsHalted()  returns FALSE (0001ms, 104412ms total)
T5250 18891:300 JLINK_IsHalted()  returns FALSE (0000ms, 104411ms total)
T5250 18891:302 JLINK_IsHalted()  returns FALSE (0000ms, 104411ms total)
T5250 18891:304 JLINK_IsHalted()  returns FALSE (0001ms, 104412ms total)
T5250 18891:307 JLINK_IsHalted()  returns FALSE (0000ms, 104411ms total)
T5250 18891:311 JLINK_IsHalted()  returns FALSE (0000ms, 104411ms total)
T5250 18891:313 JLINK_IsHalted()  returns FALSE (0000ms, 104411ms total)
T5250 18891:315 JLINK_IsHalted()  returns FALSE (0000ms, 104411ms total)
T5250 18891:317 JLINK_IsHalted()  returns FALSE (0000ms, 104411ms total)
T5250 18891:319 JLINK_IsHalted()  returns FALSE (0000ms, 104411ms total)
T5250 18891:321 JLINK_IsHalted()  returns FALSE (0001ms, 104412ms total)
T5250 18891:324 JLINK_IsHalted()  returns FALSE (0001ms, 104412ms total)
T5250 18891:327 JLINK_IsHalted() -- CPU_ReadMem(2 bytes @ 0x20000000)  returns TRUE (0004ms, 104415ms total)
T5250 18891:331 JLINK_ReadReg(R15 (PC))  returns 0x20000000 (0000ms, 104411ms total)
T5250 18891:331 JLINK_ClrBPEx(BPHandle = 0x0000000A)  returns 0x00 (0000ms, 104411ms total)
T5250 18891:331 JLINK_ReadReg(R0)  returns 0x00000000 (0000ms, 104411ms total)
T5250 18891:333 JLINK_WriteMem(0x20000170, 0x0290 Bytes, ...) - Data: 00 20 E3 E7 38 B5 04 46 00 25 00 20 00 90 20 68 ... -- CPU_WriteMem(656 bytes @ 0x20000170)  returns 0x290 (0003ms, 104414ms total)
T5250 18891:336 JLINK_WriteMem(0x20000400, 0x0170 Bytes, ...) - Data: 45 43 54 00 45 52 52 4F 52 00 00 00 70 B5 06 46 ... -- CPU_WriteMem(368 bytes @ 0x20000400)  returns 0x170 (0003ms, 104417ms total)
T5250 18891:339 JLINK_WriteReg(R0, 0x08001800)  returns 0x00 (0000ms, 104417ms total)
T5250 18891:339 JLINK_WriteReg(R1, 0x00000400)  returns 0x00 (0000ms, 104417ms total)
T5250 18891:339 JLINK_WriteReg(R2, 0x20000170)  returns 0x00 (0000ms, 104417ms total)
T5250 18891:339 JLINK_WriteReg(R3, 0x00000000)  returns 0x00 (0000ms, 104417ms total)
T5250 18891:339 JLINK_WriteReg(R4, 0x00000000)  returns 0x00 (0000ms, 104417ms total)
T5250 18891:339 JLINK_WriteReg(R5, 0x00000000)  returns 0x00 (0000ms, 104417ms total)
T5250 18891:339 JLINK_WriteReg(R6, 0x00000000)  returns 0x00 (0000ms, 104417ms total)
T5250 18891:339 JLINK_WriteReg(R7, 0x00000000)  returns 0x00 (0000ms, 104417ms total)
T5250 18891:339 JLINK_WriteReg(R8, 0x00000000)  returns 0x00 (0000ms, 104417ms total)
T5250 18891:340 JLINK_WriteReg(R9, 0x2000016C)  returns 0x00 (0000ms, 104418ms total)
T5250 18891:340 JLINK_WriteReg(R10, 0x00000000)  returns 0x00 (0000ms, 104418ms total)
T5250 18891:340 JLINK_WriteReg(R11, 0x00000000)  returns 0x00 (0000ms, 104418ms total)
T5250 18891:340 JLINK_WriteReg(R12, 0x00000000)  returns 0x00 (0000ms, 104418ms total)
T5250 18891:340 JLINK_WriteReg(R13 (SP), 0x20001000)  returns 0x00 (0000ms, 104418ms total)
T5250 18891:340 JLINK_WriteReg(R14, 0x20000001)  returns 0x00 (0000ms, 104418ms total)
T5250 18891:340 JLINK_WriteReg(R15 (PC), 0x200000FA)  returns 0x00 (0000ms, 104418ms total)
T5250 18891:340 JLINK_WriteReg(XPSR, 0x01000000)  returns 0x00 (0000ms, 104418ms total)
T5250 18891:340 JLINK_WriteReg(MSP, 0x20001000)  returns 0x00 (0001ms, 104419ms total)
T5250 18891:341 JLINK_WriteReg(PSP, 0x20001000)  returns 0x00 (0000ms, 104419ms total)
T5250 18891:341 JLINK_WriteReg(CFBP, 0x00000000)  returns 0x00 (0000ms, 104419ms total)
T5250 18891:341 JLINK_SetBPEx(Addr = 0x20000000, Type = 0xFFFFFFF2)  returns 0x0000000B (0000ms, 104419ms total)
T5250 18891:341 JLINK_Go() -- CPU_ReadMem(4 bytes @ 0xE0001000) -- CPU_WriteMem(4 bytes @ 0xE0001000) (0006ms, 104425ms total)
T5250 18891:347 JLINK_IsHalted()  returns FALSE (0001ms, 104426ms total)
T5250 18891:350 JLINK_IsHalted()  returns FALSE (0001ms, 104426ms total)
T5250 18891:353 JLINK_IsHalted()  returns FALSE (0001ms, 104426ms total)
T5250 18891:356 JLINK_IsHalted()  returns FALSE (0001ms, 104426ms total)
T5250 18891:359 JLINK_IsHalted()  returns FALSE (0001ms, 104426ms total)
T5250 18891:362 JLINK_IsHalted()  returns FALSE (0001ms, 104426ms total)
T5250 18891:365 JLINK_IsHalted()  returns FALSE (0001ms, 104427ms total)
T5250 18891:368 JLINK_IsHalted()  returns FALSE (0001ms, 104427ms total)
T5250 18891:370 JLINK_IsHalted()  returns FALSE (0001ms, 104427ms total)
T5250 18891:373 JLINK_IsHalted()  returns FALSE (0001ms, 104427ms total)
T5250 18891:376 JLINK_IsHalted() -- CPU_ReadMem(2 bytes @ 0x20000000)  returns TRUE (0003ms, 104429ms total)
T5250 18891:379 JLINK_ReadReg(R15 (PC))  returns 0x20000000 (0000ms, 104426ms total)
T5250 18891:379 JLINK_ClrBPEx(BPHandle = 0x0000000B)  returns 0x00 (0001ms, 104427ms total)
T5250 18891:380 JLINK_ReadReg(R0)  returns 0x00000000 (0000ms, 104427ms total)
T5250 18891:381 JLINK_WriteMem(0x20000170, 0x0290 Bytes, ...) - Data: 0C 49 08 60 08 46 00 68 00 28 02 D1 0A A0 0C F0 ... -- CPU_WriteMem(656 bytes @ 0x20000170)  returns 0x290 (0003ms, 104430ms total)
T5250 18891:384 JLINK_WriteMem(0x20000400, 0x0170 Bytes, ...) - Data: 04 68 E2 60 30 BD 00 00 7C B5 05 46 0C 46 21 68 ... -- CPU_WriteMem(368 bytes @ 0x20000400)  returns 0x170 (0002ms, 104432ms total)
T5250 18891:386 JLINK_WriteReg(R0, 0x08001C00)  returns 0x00 (0000ms, 104432ms total)
T5250 18891:386 JLINK_WriteReg(R1, 0x00000400)  returns 0x00 (0000ms, 104432ms total)
T5250 18891:386 JLINK_WriteReg(R2, 0x20000170)  returns 0x00 (0000ms, 104432ms total)
T5250 18891:386 JLINK_WriteReg(R3, 0x00000000)  returns 0x00 (0000ms, 104432ms total)
T5250 18891:386 JLINK_WriteReg(R4, 0x00000000)  returns 0x00 (0000ms, 104432ms total)
T5250 18891:386 JLINK_WriteReg(R5, 0x00000000)  returns 0x00 (0000ms, 104432ms total)
T5250 18891:386 JLINK_WriteReg(R6, 0x00000000)  returns 0x00 (0000ms, 104432ms total)
T5250 18891:386 JLINK_WriteReg(R7, 0x00000000)  returns 0x00 (0000ms, 104432ms total)
T5250 18891:386 JLINK_WriteReg(R8, 0x00000000)  returns 0x00 (0000ms, 104432ms total)
T5250 18891:386 JLINK_WriteReg(R9, 0x2000016C)  returns 0x00 (0000ms, 104432ms total)
T5250 18891:386 JLINK_WriteReg(R10, 0x00000000)  returns 0x00 (0000ms, 104432ms total)
T5250 18891:386 JLINK_WriteReg(R11, 0x00000000)  returns 0x00 (0000ms, 104432ms total)
T5250 18891:386 JLINK_WriteReg(R12, 0x00000000)  returns 0x00 (0000ms, 104432ms total)
T5250 18891:386 JLINK_WriteReg(R13 (SP), 0x20001000)  returns 0x00 (0001ms, 104433ms total)
T5250 18891:387 JLINK_WriteReg(R14, 0x20000001)  returns 0x00 (0000ms, 104433ms total)
T5250 18891:387 JLINK_WriteReg(R15 (PC), 0x200000FA)  returns 0x00 (0000ms, 104433ms total)
T5250 18891:387 JLINK_WriteReg(XPSR, 0x01000000)  returns 0x00 (0000ms, 104433ms total)
T5250 18891:387 JLINK_WriteReg(MSP, 0x20001000)  returns 0x00 (0000ms, 104433ms total)
T5250 18891:387 JLINK_WriteReg(PSP, 0x20001000)  returns 0x00 (0000ms, 104433ms total)
T5250 18891:387 JLINK_WriteReg(CFBP, 0x00000000)  returns 0x00 (0000ms, 104433ms total)
T5250 18891:387 JLINK_SetBPEx(Addr = 0x20000000, Type = 0xFFFFFFF2)  returns 0x0000000C (0000ms, 104433ms total)
T5250 18891:387 JLINK_Go() -- CPU_ReadMem(4 bytes @ 0xE0001000) -- CPU_WriteMem(4 bytes @ 0xE0001000) (0004ms, 104437ms total)
T5250 18891:391 JLINK_IsHalted()  returns FALSE (0000ms, 104437ms total)
T5250 18891:395 JLINK_IsHalted()  returns FALSE (0000ms, 104437ms total)
T5250 18891:397 JLINK_IsHalted()  returns FALSE (0001ms, 104438ms total)
T5250 18891:400 JLINK_IsHalted()  returns FALSE (0001ms, 104438ms total)
T5250 18891:403 JLINK_IsHalted()  returns FALSE (0000ms, 104437ms total)
T5250 18891:405 JLINK_IsHalted()  returns FALSE (0000ms, 104437ms total)
T5250 18891:407 JLINK_IsHalted()  returns FALSE (0000ms, 104437ms total)
T5250 18891:409 JLINK_IsHalted()  returns FALSE (0000ms, 104437ms total)
T5250 18891:411 JLINK_IsHalted()  returns FALSE (0000ms, 104437ms total)
T5250 18891:413 JLINK_IsHalted()  returns FALSE (0000ms, 104437ms total)
T5250 18891:415 JLINK_IsHalted()  returns FALSE (0001ms, 104438ms total)
T5250 18891:417 JLINK_IsHalted()  returns FALSE (0000ms, 104437ms total)
T5250 18891:419 JLINK_IsHalted()  returns FALSE (0000ms, 104437ms total)
T5250 18891:421 JLINK_IsHalted() -- CPU_ReadMem(2 bytes @ 0x20000000)  returns TRUE (0002ms, 104439ms total)
T5250 18891:423 JLINK_ReadReg(R15 (PC))  returns 0x20000000 (0000ms, 104437ms total)
T5250 18891:423 JLINK_ClrBPEx(BPHandle = 0x0000000C)  returns 0x00 (0000ms, 104437ms total)
T5250 18891:423 JLINK_ReadReg(R0)  returns 0x00000000 (0001ms, 104438ms total)
T5250 18891:424 JLINK_WriteMem(0x20000170, 0x0290 Bytes, ...) - Data: 30 B5 87 B0 04 46 0D 46 00 22 02 A9 12 48 02 F0 ... -- CPU_WriteMem(656 bytes @ 0x20000170)  returns 0x290 (0003ms, 104441ms total)
T5250 18891:427 JLINK_WriteMem(0x20000400, 0x0170 Bytes, ...) - Data: 10 B5 8A B0 00 20 08 90 09 90 08 AC 08 90 09 90 ... -- CPU_WriteMem(368 bytes @ 0x20000400)  returns 0x170 (0002ms, 104443ms total)
T5250 18891:429 JLINK_WriteReg(R0, 0x08002000)  returns 0x00 (0000ms, 104443ms total)
T5250 18891:429 JLINK_WriteReg(R1, 0x00000400)  returns 0x00 (0000ms, 104443ms total)
T5250 18891:429 JLINK_WriteReg(R2, 0x20000170)  returns 0x00 (0000ms, 104443ms total)
T5250 18891:429 JLINK_WriteReg(R3, 0x00000000)  returns 0x00 (0000ms, 104443ms total)
T5250 18891:429 JLINK_WriteReg(R4, 0x00000000)  returns 0x00 (0000ms, 104443ms total)
T5250 18891:429 JLINK_WriteReg(R5, 0x00000000)  returns 0x00 (0000ms, 104443ms total)
T5250 18891:429 JLINK_WriteReg(R6, 0x00000000)  returns 0x00 (0000ms, 104443ms total)
T5250 18891:429 JLINK_WriteReg(R7, 0x00000000)  returns 0x00 (0000ms, 104443ms total)
T5250 18891:429 JLINK_WriteReg(R8, 0x00000000)  returns 0x00 (0000ms, 104443ms total)
T5250 18891:429 JLINK_WriteReg(R9, 0x2000016C)  returns 0x00 (0000ms, 104443ms total)
T5250 18891:429 JLINK_WriteReg(R10, 0x00000000)  returns 0x00 (0000ms, 104443ms total)
T5250 18891:429 JLINK_WriteReg(R11, 0x00000000)  returns 0x00 (0000ms, 104443ms total)
T5250 18891:429 JLINK_WriteReg(R12, 0x00000000)  returns 0x00 (0000ms, 104443ms total)
T5250 18891:429 JLINK_WriteReg(R13 (SP), 0x20001000)  returns 0x00 (0000ms, 104443ms total)
T5250 18891:429 JLINK_WriteReg(R14, 0x20000001)  returns 0x00 (0000ms, 104443ms total)
T5250 18891:429 JLINK_WriteReg(R15 (PC), 0x200000FA)  returns 0x00 (0000ms, 104443ms total)
T5250 18891:429 JLINK_WriteReg(XPSR, 0x01000000)  returns 0x00 (0000ms, 104443ms total)
T5250 18891:429 JLINK_WriteReg(MSP, 0x20001000)  returns 0x00 (0000ms, 104443ms total)
